
T055C 000:044 SEGGER J-Link V4.76a Log File (0006ms, 0050ms total)
T055C 000:044 DLL Compiled: Aug 28 2013 10:48:19 (0010ms, 0054ms total)
T055C 000:044 Logging started @ 2017-05-22 16:32 (0014ms, 0058ms total)
T055C 000:059 JLINK_SetWarnOutHandler(...) (0003ms, 0062ms total)
T055C 000:063 JLINK_OpenEx(...)
Firmware: J-Link ARM V8 compiled Jul 17 2013 11:24:15
Hardware: V8.00
S/N: 268005922
OEM: SEGGER-EDU
Feature(s): FlashBP, GDB  returns O.K. (0036ms, 0099ms total)
T055C 000:100 JLINK_SetErrorOutHandler(...) (0003ms, 0103ms total)
T055C 000:104 JLINK_ExecCommand("ProjectFile = "Z:\TpMicro\ProjetMicro-master\Project\JLinkSettings.ini"", ...)  returns 0x00 (0013ms, 0117ms total)
T055C 000:121 JLINK_ExecCommand("Device = LPC1768", ...)
                JLINK_AddMirrorAreaEx(Addr = 0x00000000, Size = 0x00000000) (0003ms, 0003ms total)
              Device "LPC1768" selected (512 KB flash, 32 KB RAM).  returns 0x00 (0012ms, 0133ms total)
T055C 000:137 JLINK_ExecCommand("DisableConnectionTimeout", ...)  returns 0x01 (0001ms, 0138ms total)
T055C 000:142 JLINK_GetHardwareVersion()  returns 0x13880 (0014ms, 0153ms total)
T055C 000:157 JLINK_GetDLLVersion()  returns 47601 (0003ms, 0157ms total)
T055C 000:171 JLINK_GetDLLVersion()  returns 47601 (0004ms, 0163ms total)
T055C 000:176 JLINK_GetCompileDateTime() (0004ms, 0168ms total)
T055C 000:186 JLINK_GetFirmwareString(...) (0003ms, 0172ms total)
T055C 000:193 JLINK_GetHardwareVersion()  returns 0x13880 (0004ms, 0177ms total)
T055C 000:212 JLINK_TIF_Select(JLINKARM_TIF_JTAG)  returns 0x00 (0005ms, 0183ms total)
T055C 000:218 JLINK_SetSpeed(2000) (0003ms, 0187ms total)
T055C 000:223 JLINK_GetIdData(...) >0x2F8 JTAG>TotalIRLen = 4, IRPrint = 0x01 >0x30 JTAG> >0x210 JTAG> >0x70 JTAG> >0x40 JTAG> >0x40 JTAG> >0x40 JTAG> >0x48 JTAG> >0x78 JTAG> >0x40 JTAG> >0x30 JTAG> >0x40 JTAG> >0x40 JTAG> >0x30 JTAG> >0x40 JTAG> >0x48 JTAG>Found Cortex-M3 r2p0, Little endian. -- CPU_WriteMem(4 bytes @ 0xE0002000) -- CPU_ReadMem(4 bytes @ 0xE000EDF0) -- CPU_WriteMem(4 bytes @ 0xE000EDF0) -- CPU_ReadMem(4 bytes @ 0xE0002000)FPUnit: 6 code (BP) slots and 2 literal slots
 -- CPU_ReadMem(4 bytes @ 0xE000EDFC) -- CPU_WriteMem(4 bytes @ 0xE000EDFC) -- CPU_ReadMem(4 bytes @ 0xE0001000) -- CPU_WriteMem(4 bytes @ 0xE0001000) -- CPU_ReadMem(4 bytes @ 0xE00FF010)TPIU fitted. -- CPU_ReadMem(4 bytes @ 0xE00FF014)ETM fitted. -- CPU_ReadMem(4 bytes @ 0xE00FF018) ScanLen=4 NumDevices=1 aId[0]=0x4BA00477 aIrRead[0]=0 aScanLen[0]=0 aScanRead[0]=0 (0098ms, 0287ms total)
T055C 000:322 JLINK_JTAG_GetDeviceID(DeviceIndex = 0)  returns 0x4BA00477 (0004ms, 0292ms total)
T055C 000:327 JLINK_JTAG_GetDeviceInfo(DeviceIndex = 0)  returns 0x00 (0004ms, 0297ms total)
T055C 000:332 JLINK_GetDeviceFamily()  returns 3 (0004ms, 0302ms total)
T055C 000:341 JLINK_ReadMem (0xE00FFFF0, 0x0010 Bytes, ...) -- CPU is running -- CPU_ReadMem(16 bytes @ 0xE00FFFF0) -- Data:  0D 00 00 00 10 00 00 00 05 00 00 00 B1 00 00 00  returns 0x00 (0008ms, 0311ms total)
T055C 000:354 JLINK_ReadMem (0xE00FFFD0, 0x0020 Bytes, ...) -- CPU is running -- CPU_ReadMem(32 bytes @ 0xE00FFFD0) -- Data:  00 00 00 00 00 00 00 00 00 00 00 00 00 00 00 00 ...  returns 0x00 (0009ms, 0325ms total)
T055C 000:364 JLINK_ReadMem (0xE00FF000, 0x0018 Bytes, ...) -- CPU is running -- CPU_ReadMem(24 bytes @ 0xE00FF000) -- Data:  03 F0 F0 FF 03 20 F0 FF 03 30 F0 FF 03 10 F0 FF ...  returns 0x00 (0008ms, 0334ms total)
T055C 000:373 JLINK_ReadMemU32(0xE000ED00, 0x0001 Items, ...) -- CPU is running -- CPU_ReadMem(4 bytes @ 0xE000ED00) -- Data:  30 C2 2F 41  returns 0x01 (0008ms, 0343ms total)
T055C 000:382 JLINK_SetResetType(JLINKARM_RESET_TYPE_NORMAL)  returns ??? (0004ms, 0348ms total)
T055C 000:387 JLINK_Reset() >0x78 JTAG> >0x40 JTAG> >0x30 JTAG> >0x40 JTAG> >0x40 JTAG> >0x30 JTAG> >0x40 JTAG> >0x48 JTAG>Found Cortex-M3 r2p0, Little endian. -- CPU is running -- CPU_WriteMem(4 bytes @ 0xE000EDF0) -- CPU is running -- CPU_WriteMem(4 bytes @ 0xE000EDFC) -- CPU is running -- CPU_WriteMem(4 bytes @ 0xE000ED0C) -- CPU is running -- CPU_ReadMem(4 bytes @ 0xE000EDF0) -- CPU is running -- CPU_ReadMem(4 bytes @ 0xE000EDF0) -- CPU is running -- CPU_WriteMem(4 bytes @ 0xE000EDF0)
 -- CPU is running -- CPU_WriteMem(4 bytes @ 0xE000EDFC) -- CPU is running -- CPU_ReadMem(4 bytes @ 0xE000EDF0) >0x78 JTAG> >0x40 JTAG> >0x30 JTAG> >0x40 JTAG> >0x48 JTAG> >0x40 JTAG> -- CPU_WriteMem(4 bytes @ 0xE000EDFC) -- CPU_WriteMem(4 bytes @ 0xE0001028) -- CPU_WriteMem(4 bytes @ 0xE0001038) -- CPU_WriteMem(4 bytes @ 0xE0001048) -- CPU_WriteMem(4 bytes @ 0xE0001058) -- CPU_WriteMem(4 bytes @ 0xE000EDFC)CPU did not halt after bootloader.
                JLINK_ReadMemHW(0x400FC040, 0x0004 Bytes, ...) -- CPU_ReadMem(4 bytes @ 0x400FC040) -- Data:  01 00 00 00  returns 0x00 (0009ms, 0009ms total)
               -- MA0 is in flash -- Unmirror addr 0x0000241A -- CPU_WriteMem(4 bytes @ 0xE000EDFC) -- CPU_WriteMem(4 bytes @ 0xE0001028) -- CPU_WriteMem(4 bytes @ 0xE0001028) -- CPU_ReadMem(4 bytes @ 0x00000004) -- CPU_ReadMem(4 bytes @ 0xE0002000) -- CPU_WriteMem(4 bytes @ 0xE0002000) -- CPU_WriteMem(4 bytes @ 0xE0002008) -- Invalidate MA0 statusCPU did not halt after bootloader.
                JLINK_ReadMemHW(0x400FC040, 0x0004 Bytes, ...) -- CPU_ReadMem(4 bytes @ 0x400FC040) -- Data:  01 00 00 00  returns 0x00 (0007ms, 0017ms total)
               -- MA0 is in flash -- Unmirror addr 0x0000240E -- CPU_WriteMem(4 bytes @ 0xE0002000) -- CPU_WriteMem(4 bytes @ 0xE0002000) >0x06 JTAG> (0568ms, 0917ms total)
T055C 000:956 JLINK_Halt()  returns 0x00 (0004ms, 0922ms total)
T055C 000:961 JLINK_IsHalted() -- Unmirror addr 0x0000240E  returns TRUE (0006ms, 0929ms total)
T055C 000:968 JLINK_ReadMemU32(0xE000EDF0, 0x0001 Items, ...) -- CPU_ReadMem(4 bytes @ 0xE000EDF0) -- Data:  03 00 03 00  returns 0x01 (0008ms, 0931ms total)
T055C 000:977 JLINK_WriteU32(0xE000EDF0, 0xA05F0003) -- CPU_WriteMem(4 bytes @ 0xE000EDF0) -- Invalidate MA0 status  returns 0x00 (0008ms, 0940ms total)
T055C 000:986 JLINK_WriteU32(0xE000EDFC, 0x01000000) -- CPU_WriteMem(4 bytes @ 0xE000EDFC)  returns 0x00 (0006ms, 0947ms total)
T055C 001:005 JLINK_GetHWStatus(...)  returns 0x00 (0005ms, 0953ms total)
T055C 001:019 JLINK_GetNumBPUnits(Type = 0xFFFFFF00)  returns 0x00 (0006ms, 0960ms total)
T055C 001:026 JLINK_GetNumBPUnits(Type = 0xF0)  returns 0x2000 (0004ms, 0965ms total)
T055C 001:031 JLINK_GetNumWPUnits()  returns 0x00 (0004ms, 0970ms total)
T055C 001:045 JLINK_GetSpeed()  returns 0x7D0 (0004ms, 0975ms total)
T055C 001:056 JLINK_ReadMemU32(0xE000E004, 0x0001 Items, ...) -- CPU_ReadMem(4 bytes @ 0xE000E004) -- Data:  01 00 00 00  returns 0x01 (0008ms, 0984ms total)
T055C 001:065 JLINK_ReadMemU32(0xE000E004, 0x0001 Items, ...) -- CPU_ReadMem(4 bytes @ 0xE000E004) -- Data:  01 00 00 00  returns 0x01 (0007ms, 0992ms total)
T055C 001:073 JLINK_WriteMem(0xE0001000, 0x001C Bytes, ...) -- Data:  01 00 00 00 00 00 00 00 00 00 00 00 00 00 00 00 ... -- CPU_WriteMem(28 bytes @ 0xE0001000)  returns 0x1C (0008ms, 1001ms total)
T055C 001:082 JLINK_ReadMem (0xE0001000, 0x001C Bytes, ...) -- CPU_ReadMem(28 bytes @ 0xE0001000) -- Data:  01 00 00 40 00 00 00 00 00 00 00 00 00 00 00 00 ...  returns 0x00 (0008ms, 1010ms total)
T055C 001:091 JLINK_Halt()  returns 0x00 (0005ms, 1016ms total)
T055C 001:097 JLINK_IsHalted()
                JLINK_ReadMemHW(0x400FC040, 0x0004 Bytes, ...) -- CPU_ReadMem(4 bytes @ 0x400FC040) -- Data:  01 00 00 00  returns 0x00 (0008ms, 0008ms total)
               -- MA0 is in flash -- Unmirror addr 0x0000240E  returns TRUE (0016ms, 1033ms total)
T055C 001:117 JLINK_WriteMem(0x10000000, 0x01E4 Bytes, ...) -- Data:  00 BE 0A E0 0D 78 2D 06 68 40 08 24 40 00 00 D3 ... -- CPU_WriteMem(484 bytes @ 0x10000000)  returns 0x1E4 (0010ms, 1027ms total)
T055C 001:128 JLINK_WriteReg(R0, 0x00000000)  returns 0x00 (0004ms, 1032ms total)
T055C 001:133 JLINK_WriteReg(R1, 0x00B71B00)  returns 0x00 (0004ms, 1037ms total)
T055C 001:138 JLINK_WriteReg(R2, 0x00000001)  returns 0x00 (0004ms, 1042ms total)
T055C 001:143 JLINK_WriteReg(R3, 0x00000000)  returns 0x00 (0004ms, 1047ms total)
T055C 001:148 JLINK_WriteReg(R4, 0x00000000)  returns 0x00 (0004ms, 1052ms total)
T055C 001:153 JLINK_WriteReg(R5, 0x00000000)  returns 0x00 (0004ms, 1057ms total)
T055C 001:158 JLINK_WriteReg(R6, 0x00000000)  returns 0x00 (0004ms, 1062ms total)
T055C 001:163 JLINK_WriteReg(R7, 0x00000000)  returns 0x00 (0004ms, 1067ms total)
T055C 001:168 JLINK_WriteReg(R8, 0x00000000)  returns 0x00 (0005ms, 1073ms total)
T055C 001:174 JLINK_WriteReg(R9, 0x100001DC)  returns 0x00 (0004ms, 1078ms total)
T055C 001:179 JLINK_WriteReg(R10, 0x00000000)  returns 0x00 (0004ms, 1083ms total)
T055C 001:184 JLINK_WriteReg(R11, 0x00000000)  returns 0x00 (0004ms, 1088ms total)
T055C 001:189 JLINK_WriteReg(R12, 0x00000000)  returns 0x00 (0004ms, 1093ms total)
T055C 001:194 JLINK_WriteReg(R13 (SP), 0x10000800)  returns 0x00 (0004ms, 1098ms total)
T055C 001:199 JLINK_WriteReg(R14, 0x10000001)  returns 0x00 (0005ms, 1104ms total)
T055C 001:205 JLINK_WriteReg(R15 (PC), 0x10000044)  returns 0x00 (0005ms, 1110ms total)
T055C 001:211 JLINK_WriteReg(XPSR, 0x01000000)  returns 0x00 (0005ms, 1116ms total)
T055C 001:217 JLINK_WriteReg(MSP, 0x10000800)  returns 0x00 (0004ms, 1121ms total)
T055C 001:222 JLINK_WriteReg(PSP, 0x10000800)  returns 0x00 (0005ms, 1127ms total)
T055C 001:228 JLINK_WriteReg(CFBP, 0x00000000)  returns 0x00 (0004ms, 1132ms total)
T055C 001:234 JLINK_SetBPEx(Addr = 0x10000000, Type = 0xFFFFFFF2) -- CPU_ReadMem(2 bytes @ 0x10000000)  returns 0x00000001 (0007ms, 1141ms total)
T055C 001:242 JLINK_Go() -- CPU_WriteMem(2 bytes @ 0x10000000) -- Invalidate MA0 status (0009ms, 1151ms total)
T055C 001:252 JLINK_IsHalted() -- CPU_ReadMem(2 bytes @ 0x10000000)  returns TRUE (0012ms, 1164ms total)
T055C 001:265 JLINK_ReadReg(R15 (PC))  returns 0x10000000 (0004ms, 1156ms total)
T055C 001:270 JLINK_ClrBPEx(BPHandle = 0x00000001)  returns 0x00 (0004ms, 1161ms total)
T055C 001:275 JLINK_ReadReg(R0)  returns 0x00000000 (0004ms, 1166ms total)
T055C 001:280 JLINK_WriteReg(R0, 0x00000000)  returns 0x00 (0004ms, 1171ms total)
T055C 001:285 JLINK_WriteReg(R1, 0x00001000)  returns 0x00 (0004ms, 1176ms total)
T055C 001:290 JLINK_WriteReg(R2, 0x000000FF)  returns 0x00 (0004ms, 1181ms total)
T055C 001:295 JLINK_WriteReg(R3, 0x00000000)  returns 0x00 (0004ms, 1186ms total)
T055C 001:300 JLINK_WriteReg(R4, 0x00000000)  returns 0x00 (0004ms, 1191ms total)
T055C 001:305 JLINK_WriteReg(R5, 0x00000000)  returns 0x00 (0004ms, 1196ms total)
T055C 001:310 JLINK_WriteReg(R6, 0x00000000)  returns 0x00 (0004ms, 1201ms total)
T055C 001:315 JLINK_WriteReg(R7, 0x00000000)  returns 0x00 (0004ms, 1206ms total)
T055C 001:320 JLINK_WriteReg(R8, 0x00000000)  returns 0x00 (0004ms, 1211ms total)
T055C 001:325 JLINK_WriteReg(R9, 0x100001DC)  returns 0x00 (0004ms, 1216ms total)
T055C 001:330 JLINK_WriteReg(R10, 0x00000000)  returns 0x00 (0004ms, 1221ms total)
T055C 001:335 JLINK_WriteReg(R11, 0x00000000)  returns 0x00 (0004ms, 1226ms total)
T055C 001:340 JLINK_WriteReg(R12, 0x00000000)  returns 0x00 (0004ms, 1231ms total)
T055C 001:345 JLINK_WriteReg(R13 (SP), 0x10000800)  returns 0x00 (0004ms, 1236ms total)
T055C 001:350 JLINK_WriteReg(R14, 0x10000001)  returns 0x00 (0004ms, 1241ms total)
T055C 001:355 JLINK_WriteReg(R15 (PC), 0x10000020)  returns 0x00 (0004ms, 1246ms total)
T055C 001:360 JLINK_WriteReg(XPSR, 0x01000000)  returns 0x00 (0004ms, 1251ms total)
T055C 001:365 JLINK_WriteReg(MSP, 0x10000800)  returns 0x00 (0004ms, 1256ms total)
T055C 001:370 JLINK_WriteReg(PSP, 0x10000800)  returns 0x00 (0004ms, 1261ms total)
T055C 001:375 JLINK_WriteReg(CFBP, 0x00000000)  returns 0x00 (0004ms, 1266ms total)
T055C 001:380 JLINK_SetBPEx(Addr = 0x10000000, Type = 0xFFFFFFF2)  returns 0x00000002 (0004ms, 1271ms total)
T055C 001:385 JLINK_Go() (0005ms, 1277ms total)
T055C 001:391 JLINK_IsHalted() -- CPU_ReadMem(2 bytes @ 0x10000000)  returns TRUE (0012ms, 1290ms total)
T055C 001:404 JLINK_ReadReg(R15 (PC))  returns 0x10000000 (0004ms, 1282ms total)
T055C 001:409 JLINK_ClrBPEx(BPHandle = 0x00000002)  returns 0x00 (0004ms, 1287ms total)
T055C 001:414 JLINK_ReadReg(R0)  returns 0x00000001 (0004ms, 1292ms total)
T055C 001:419 JLINK_WriteReg(R0, 0x00000000)  returns 0x00 (0004ms, 1297ms total)
T055C 001:424 JLINK_WriteReg(R1, 0x00001000)  returns 0x00 (0004ms, 1302ms total)
T055C 001:429 JLINK_WriteReg(R2, 0x000000FF)  returns 0x00 (0004ms, 1307ms total)
T055C 001:434 JLINK_WriteReg(R3, 0x00000000)  returns 0x00 (0004ms, 1312ms total)
T055C 001:439 JLINK_WriteReg(R4, 0x00000000)  returns 0x00 (0004ms, 1317ms total)
T055C 001:444 JLINK_WriteReg(R5, 0x00000000)  returns 0x00 (0004ms, 1322ms total)
T055C 001:449 JLINK_WriteReg(R6, 0x00000000)  returns 0x00 (0004ms, 1327ms total)
T055C 001:454 JLINK_WriteReg(R7, 0x00000000)  returns 0x00 (0004ms, 1332ms total)
T055C 001:459 JLINK_WriteReg(R8, 0x00000000)  returns 0x00 (0004ms, 1337ms total)
T055C 001:464 JLINK_WriteReg(R9, 0x100001DC)  returns 0x00 (0004ms, 1342ms total)
T055C 001:469 JLINK_WriteReg(R10, 0x00000000)  returns 0x00 (0004ms, 1347ms total)
T055C 001:474 JLINK_WriteReg(R11, 0x00000000)  returns 0x00 (0004ms, 1352ms total)
T055C 001:479 JLINK_WriteReg(R12, 0x00000000)  returns 0x00 (0004ms, 1357ms total)
T055C 001:484 JLINK_WriteReg(R13 (SP), 0x10000800)  returns 0x00 (0005ms, 1363ms total)
T055C 001:491 JLINK_WriteReg(R14, 0x10000001)  returns 0x00 (0005ms, 1370ms total)
T055C 001:497 JLINK_WriteReg(R15 (PC), 0x10000110)  returns 0x00 (0005ms, 1376ms total)
T055C 001:503 JLINK_WriteReg(XPSR, 0x01000000)  returns 0x00 (0006ms, 1383ms total)
T055C 001:510 JLINK_WriteReg(MSP, 0x10000800)  returns 0x00 (0007ms, 1391ms total)
T055C 001:518 JLINK_WriteReg(PSP, 0x10000800)  returns 0x00 (0004ms, 1396ms total)
T055C 001:523 JLINK_WriteReg(CFBP, 0x00000000)  returns 0x00 (0004ms, 1401ms total)
T055C 001:528 JLINK_SetBPEx(Addr = 0x10000000, Type = 0xFFFFFFF2)  returns 0x00000003 (0004ms, 1406ms total)
T055C 001:533 JLINK_Go() (0013ms, 1420ms total)
T055C 001:547 JLINK_IsHalted()  returns FALSE (0012ms, 1433ms total)
T055C 001:609 JLINK_IsHalted()  returns FALSE (0005ms, 1426ms total)
T055C 001:616 JLINK_IsHalted()  returns FALSE (0005ms, 1426ms total)
T055C 001:623 JLINK_IsHalted()  returns FALSE (0005ms, 1426ms total)
T055C 001:632 JLINK_IsHalted()  returns FALSE (0006ms, 1427ms total)
T055C 001:644 JLINK_IsHalted() -- CPU_ReadMem(2 bytes @ 0x10000000)  returns TRUE (0013ms, 1434ms total)
T055C 001:658 JLINK_ReadReg(R15 (PC))  returns 0x10000000 (0004ms, 1425ms total)
T055C 001:663 JLINK_ClrBPEx(BPHandle = 0x00000003)  returns 0x00 (0004ms, 1430ms total)
T055C 001:668 JLINK_ReadReg(R0)  returns 0x00000000 (0004ms, 1435ms total)
T055C 001:674 JLINK_WriteReg(R0, 0x00001000)  returns 0x00 (0004ms, 1440ms total)
T055C 001:679 JLINK_WriteReg(R1, 0x00001000)  returns 0x00 (0004ms, 1445ms total)
T055C 001:684 JLINK_WriteReg(R2, 0x000000FF)  returns 0x00 (0004ms, 1450ms total)
T055C 001:689 JLINK_WriteReg(R3, 0x00000000)  returns 0x00 (0004ms, 1455ms total)
T055C 001:694 JLINK_WriteReg(R4, 0x00000000)  returns 0x00 (0004ms, 1460ms total)
T055C 001:699 JLINK_WriteReg(R5, 0x00000000)  returns 0x00 (0004ms, 1465ms total)
T055C 001:704 JLINK_WriteReg(R6, 0x00000000)  returns 0x00 (0004ms, 1470ms total)
T055C 001:709 JLINK_WriteReg(R7, 0x00000000)  returns 0x00 (0005ms, 1476ms total)
T055C 001:715 JLINK_WriteReg(R8, 0x00000000)  returns 0x00 (0004ms, 1481ms total)
T055C 001:720 JLINK_WriteReg(R9, 0x100001DC)  returns 0x00 (0004ms, 1486ms total)
T055C 001:725 JLINK_WriteReg(R10, 0x00000000)  returns 0x00 (0004ms, 1491ms total)
T055C 001:730 JLINK_WriteReg(R11, 0x00000000)  returns 0x00 (0004ms, 1496ms total)
T055C 001:735 JLINK_WriteReg(R12, 0x00000000)  returns 0x00 (0004ms, 1501ms total)
T055C 001:740 JLINK_WriteReg(R13 (SP), 0x10000800)  returns 0x00 (0004ms, 1506ms total)
T055C 001:745 JLINK_WriteReg(R14, 0x10000001)  returns 0x00 (0004ms, 1511ms total)
T055C 001:750 JLINK_WriteReg(R15 (PC), 0x10000020)  returns 0x00 (0004ms, 1516ms total)
T055C 001:755 JLINK_WriteReg(XPSR, 0x01000000)  returns 0x00 (0004ms, 1521ms total)
T055C 001:760 JLINK_WriteReg(MSP, 0x10000800)  returns 0x00 (0004ms, 1526ms total)
T055C 001:765 JLINK_WriteReg(PSP, 0x10000800)  returns 0x00 (0004ms, 1531ms total)
T055C 001:770 JLINK_WriteReg(CFBP, 0x00000000)  returns 0x00 (0004ms, 1536ms total)
T055C 001:775 JLINK_SetBPEx(Addr = 0x10000000, Type = 0xFFFFFFF2)  returns 0x00000004 (0004ms, 1541ms total)
T055C 001:780 JLINK_Go() (0005ms, 1547ms total)
T055C 001:787 JLINK_IsHalted() -- CPU_ReadMem(2 bytes @ 0x10000000)  returns TRUE (0011ms, 1560ms total)
T055C 001:799 JLINK_ReadReg(R15 (PC))  returns 0x10000000 (0004ms, 1553ms total)
T055C 001:804 JLINK_ClrBPEx(BPHandle = 0x00000004)  returns 0x00 (0005ms, 1559ms total)
T055C 001:810 JLINK_ReadReg(R0)  returns 0x00000001 (0004ms, 1564ms total)
T055C 001:815 JLINK_WriteReg(R0, 0x00001000)  returns 0x00 (0004ms, 1569ms total)
T055C 001:820 JLINK_WriteReg(R1, 0x00001000)  returns 0x00 (0004ms, 1574ms total)
T055C 001:825 JLINK_WriteReg(R2, 0x000000FF)  returns 0x00 (0004ms, 1579ms total)
T055C 001:830 JLINK_WriteReg(R3, 0x00000000)  returns 0x00 (0004ms, 1584ms total)
T055C 001:835 JLINK_WriteReg(R4, 0x00000000)  returns 0x00 (0004ms, 1589ms total)
T055C 001:840 JLINK_WriteReg(R5, 0x00000000)  returns 0x00 (0004ms, 1594ms total)
T055C 001:845 JLINK_WriteReg(R6, 0x00000000)  returns 0x00 (0004ms, 1599ms total)
T055C 001:850 JLINK_WriteReg(R7, 0x00000000)  returns 0x00 (0005ms, 1605ms total)
T055C 001:856 JLINK_WriteReg(R8, 0x00000000)  returns 0x00 (0004ms, 1610ms total)
T055C 001:861 JLINK_WriteReg(R9, 0x100001DC)  returns 0x00 (0004ms, 1615ms total)
T055C 001:866 JLINK_WriteReg(R10, 0x00000000)  returns 0x00 (0004ms, 1620ms total)
T055C 001:871 JLINK_WriteReg(R11, 0x00000000)  returns 0x00 (0004ms, 1625ms total)
T055C 001:876 JLINK_WriteReg(R12, 0x00000000)  returns 0x00 (0004ms, 1630ms total)
T055C 001:881 JLINK_WriteReg(R13 (SP), 0x10000800)  returns 0x00 (0004ms, 1635ms total)
T055C 001:886 JLINK_WriteReg(R14, 0x10000001)  returns 0x00 (0004ms, 1640ms total)
T055C 001:891 JLINK_WriteReg(R15 (PC), 0x10000110)  returns 0x00 (0004ms, 1645ms total)
T055C 001:896 JLINK_WriteReg(XPSR, 0x01000000)  returns 0x00 (0004ms, 1650ms total)
T055C 001:901 JLINK_WriteReg(MSP, 0x10000800)  returns 0x00 (0004ms, 1655ms total)
T055C 001:906 JLINK_WriteReg(PSP, 0x10000800)  returns 0x00 (0004ms, 1660ms total)
T055C 001:911 JLINK_WriteReg(CFBP, 0x00000000)  returns 0x00 (0004ms, 1665ms total)
T055C 001:916 JLINK_SetBPEx(Addr = 0x10000000, Type = 0xFFFFFFF2)  returns 0x00000005 (0004ms, 1670ms total)
T055C 001:921 JLINK_Go() (0005ms, 1676ms total)
T055C 001:927 JLINK_IsHalted()  returns FALSE (0006ms, 1683ms total)
T055C 001:963 JLINK_IsHalted()  returns FALSE (0005ms, 1682ms total)
T055C 001:977 JLINK_IsHalted()  returns FALSE (0005ms, 1682ms total)
T055C 001:986 JLINK_IsHalted()  returns FALSE (0005ms, 1682ms total)
T055C 001:993 JLINK_IsHalted()  returns FALSE (0005ms, 1682ms total)
T055C 002:002 JLINK_IsHalted()  returns FALSE (0005ms, 1682ms total)
T055C 002:009 JLINK_IsHalted()  returns FALSE (0005ms, 1682ms total)
T055C 002:016 JLINK_IsHalted()  returns FALSE (0005ms, 1682ms total)
T055C 002:024 JLINK_IsHalted() -- CPU_ReadMem(2 bytes @ 0x10000000)  returns TRUE (0016ms, 1693ms total)
T055C 002:041 JLINK_ReadReg(R15 (PC))  returns 0x10000000 (0004ms, 1681ms total)
T055C 002:046 JLINK_ClrBPEx(BPHandle = 0x00000005)  returns 0x00 (0004ms, 1686ms total)
T055C 002:051 JLINK_ReadReg(R0)  returns 0x00000000 (0004ms, 1691ms total)
T055C 002:057 JLINK_WriteReg(R0, 0x00002000)  returns 0x00 (0004ms, 1696ms total)
T055C 002:063 JLINK_WriteReg(R1, 0x00001000)  returns 0x00 (0004ms, 1702ms total)
T055C 002:068 JLINK_WriteReg(R2, 0x000000FF)  returns 0x00 (0004ms, 1707ms total)
T055C 002:073 JLINK_WriteReg(R3, 0x00000000)  returns 0x00 (0006ms, 1714ms total)
T055C 002:080 JLINK_WriteReg(R4, 0x00000000)  returns 0x00 (0004ms, 1719ms total)
T055C 002:085 JLINK_WriteReg(R5, 0x00000000)  returns 0x00 (0004ms, 1724ms total)
T055C 002:090 JLINK_WriteReg(R6, 0x00000000)  returns 0x00 (0005ms, 1730ms total)
T055C 002:096 JLINK_WriteReg(R7, 0x00000000)  returns 0x00 (0004ms, 1735ms total)
T055C 002:101 JLINK_WriteReg(R8, 0x00000000)  returns 0x00 (0004ms, 1740ms total)
T055C 002:106 JLINK_WriteReg(R9, 0x100001DC)  returns 0x00 (0004ms, 1745ms total)
T055C 002:111 JLINK_WriteReg(R10, 0x00000000)  returns 0x00 (0004ms, 1750ms total)
T055C 002:116 JLINK_WriteReg(R11, 0x00000000)  returns 0x00 (0004ms, 1755ms total)
T055C 002:121 JLINK_WriteReg(R12, 0x00000000)  returns 0x00 (0004ms, 1760ms total)
T055C 002:127 JLINK_WriteReg(R13 (SP), 0x10000800)  returns 0x00 (0004ms, 1766ms total)
T055C 002:132 JLINK_WriteReg(R14, 0x10000001)  returns 0x00 (0004ms, 1771ms total)
T055C 002:137 JLINK_WriteReg(R15 (PC), 0x10000020)  returns 0x00 (0004ms, 1776ms total)
T055C 002:143 JLINK_WriteReg(XPSR, 0x01000000)  returns 0x00 (0013ms, 1790ms total)
T055C 002:157 JLINK_WriteReg(MSP, 0x10000800)  returns 0x00 (0007ms, 1798ms total)
T055C 002:165 JLINK_WriteReg(PSP, 0x10000800)  returns 0x00 (0003ms, 1802ms total)
T055C 002:170 JLINK_WriteReg(CFBP, 0x00000000)  returns 0x00 (0004ms, 1808ms total)
T055C 002:175 JLINK_SetBPEx(Addr = 0x10000000, Type = 0xFFFFFFF2)  returns 0x00000006 (0004ms, 1813ms total)
T055C 002:180 JLINK_Go() (0006ms, 1820ms total)
T055C 002:187 JLINK_IsHalted() -- CPU_ReadMem(2 bytes @ 0x10000000)  returns TRUE (0012ms, 1833ms total)
T055C 002:200 JLINK_ReadReg(R15 (PC))  returns 0x10000000 (0004ms, 1825ms total)
T055C 002:205 JLINK_ClrBPEx(BPHandle = 0x00000006)  returns 0x00 (0004ms, 1830ms total)
T055C 002:210 JLINK_ReadReg(R0)  returns 0x00000001 (0004ms, 1835ms total)
T055C 002:215 JLINK_WriteReg(R0, 0x00002000)  returns 0x00 (0004ms, 1840ms total)
T055C 002:220 JLINK_WriteReg(R1, 0x00001000)  returns 0x00 (0004ms, 1845ms total)
T055C 002:225 JLINK_WriteReg(R2, 0x000000FF)  returns 0x00 (0004ms, 1850ms total)
T055C 002:230 JLINK_WriteReg(R3, 0x00000000)  returns 0x00 (0004ms, 1855ms total)
T055C 002:235 JLINK_WriteReg(R4, 0x00000000)  returns 0x00 (0004ms, 1860ms total)
T055C 002:240 JLINK_WriteReg(R5, 0x00000000)  returns 0x00 (0004ms, 1865ms total)
T055C 002:245 JLINK_WriteReg(R6, 0x00000000)  returns 0x00 (0004ms, 1870ms total)
T055C 002:250 JLINK_WriteReg(R7, 0x00000000)  returns 0x00 (0005ms, 1876ms total)
T055C 002:256 JLINK_WriteReg(R8, 0x00000000)  returns 0x00 (0004ms, 1881ms total)
T055C 002:261 JLINK_WriteReg(R9, 0x100001DC)  returns 0x00 (0005ms, 1887ms total)
T055C 002:267 JLINK_WriteReg(R10, 0x00000000)  returns 0x00 (0004ms, 1892ms total)
T055C 002:272 JLINK_WriteReg(R11, 0x00000000)  returns 0x00 (0004ms, 1897ms total)
T055C 002:277 JLINK_WriteReg(R12, 0x00000000)  returns 0x00 (0004ms, 1902ms total)
T055C 002:283 JLINK_WriteReg(R13 (SP), 0x10000800)  returns 0x00 (0004ms, 1908ms total)
T055C 002:288 JLINK_WriteReg(R14, 0x10000001)  returns 0x00 (0004ms, 1913ms total)
T055C 002:293 JLINK_WriteReg(R15 (PC), 0x10000110)  returns 0x00 (0004ms, 1918ms total)
T055C 002:298 JLINK_WriteReg(XPSR, 0x01000000)  returns 0x00 (0004ms, 1923ms total)
T055C 002:303 JLINK_WriteReg(MSP, 0x10000800)  returns 0x00 (0005ms, 1929ms total)
T055C 002:309 JLINK_WriteReg(PSP, 0x10000800)  returns 0x00 (0004ms, 1934ms total)
T055C 002:315 JLINK_WriteReg(CFBP, 0x00000000)  returns 0x00 (0004ms, 1940ms total)
T055C 002:320 JLINK_SetBPEx(Addr = 0x10000000, Type = 0xFFFFFFF2)  returns 0x00000007 (0005ms, 1946ms total)
T055C 002:326 JLINK_Go() (0006ms, 1953ms total)
T055C 002:333 JLINK_IsHalted()  returns FALSE (0006ms, 1960ms total)
T055C 002:367 JLINK_IsHalted()  returns FALSE (0006ms, 1960ms total)
T055C 002:381 JLINK_IsHalted()  returns FALSE (0006ms, 1960ms total)
T055C 002:392 JLINK_IsHalted()  returns FALSE (0006ms, 1960ms total)
T055C 002:406 JLINK_IsHalted()  returns FALSE (0005ms, 1959ms total)
T055C 002:414 JLINK_IsHalted()  returns FALSE (0007ms, 1961ms total)
T055C 002:426 JLINK_IsHalted()  returns FALSE (0007ms, 1961ms total)
T055C 002:436 JLINK_IsHalted() -- CPU_ReadMem(2 bytes @ 0x10000000)  returns TRUE (0012ms, 1966ms total)
T055C 002:449 JLINK_ReadReg(R15 (PC))  returns 0x10000000 (0005ms, 1959ms total)
T055C 002:455 JLINK_ClrBPEx(BPHandle = 0x00000007)  returns 0x00 (0005ms, 1965ms total)
T055C 002:461 JLINK_ReadReg(R0)  returns 0x00000000 (0004ms, 1970ms total)
T055C 002:467 JLINK_WriteReg(R0, 0x00003000)  returns 0x00 (0004ms, 1975ms total)
T055C 002:472 JLINK_WriteReg(R1, 0x00001000)  returns 0x00 (0004ms, 1980ms total)
T055C 002:478 JLINK_WriteReg(R2, 0x000000FF)  returns 0x00 (0004ms, 1986ms total)
T055C 002:484 JLINK_WriteReg(R3, 0x00000000)  returns 0x00 (0004ms, 1992ms total)
T055C 002:489 JLINK_WriteReg(R4, 0x00000000)  returns 0x00 (0005ms, 1998ms total)
T055C 002:495 JLINK_WriteReg(R5, 0x00000000)  returns 0x00 (0004ms, 2003ms total)
T055C 002:500 JLINK_WriteReg(R6, 0x00000000)  returns 0x00 (0005ms, 2009ms total)
T055C 002:506 JLINK_WriteReg(R7, 0x00000000)  returns 0x00 (0004ms, 2014ms total)
T055C 002:512 JLINK_WriteReg(R8, 0x00000000)  returns 0x00 (0008ms, 2024ms total)
T055C 002:521 JLINK_WriteReg(R9, 0x100001DC)  returns 0x00 (0005ms, 2030ms total)
T055C 002:527 JLINK_WriteReg(R10, 0x00000000)  returns 0x00 (0004ms, 2035ms total)
T055C 002:532 JLINK_WriteReg(R11, 0x00000000)  returns 0x00 (0004ms, 2040ms total)
T055C 002:537 JLINK_WriteReg(R12, 0x00000000)  returns 0x00 (0004ms, 2045ms total)
T055C 002:543 JLINK_WriteReg(R13 (SP), 0x10000800)  returns 0x00 (0004ms, 2051ms total)
T055C 002:548 JLINK_WriteReg(R14, 0x10000001)  returns 0x00 (0005ms, 2057ms total)
T055C 002:554 JLINK_WriteReg(R15 (PC), 0x10000020)  returns 0x00 (0004ms, 2062ms total)
T055C 002:559 JLINK_WriteReg(XPSR, 0x01000000)  returns 0x00 (0004ms, 2067ms total)
T055C 002:564 JLINK_WriteReg(MSP, 0x10000800)  returns 0x00 (0004ms, 2072ms total)
T055C 002:569 JLINK_WriteReg(PSP, 0x10000800)  returns 0x00 (0004ms, 2077ms total)
T055C 002:574 JLINK_WriteReg(CFBP, 0x00000000)  returns 0x00 (0004ms, 2082ms total)
T055C 002:579 JLINK_SetBPEx(Addr = 0x10000000, Type = 0xFFFFFFF2)  returns 0x00000008 (0004ms, 2087ms total)
T055C 002:584 JLINK_Go() (0005ms, 2093ms total)
T055C 002:590 JLINK_IsHalted() -- CPU_ReadMem(2 bytes @ 0x10000000)  returns TRUE (0013ms, 2107ms total)
T055C 002:604 JLINK_ReadReg(R15 (PC))  returns 0x10000000 (0005ms, 2099ms total)
T055C 002:610 JLINK_ClrBPEx(BPHandle = 0x00000008)  returns 0x00 (0006ms, 2106ms total)
T055C 002:617 JLINK_ReadReg(R0)  returns 0x00000001 (0004ms, 2111ms total)
T055C 002:622 JLINK_WriteReg(R0, 0x00003000)  returns 0x00 (0004ms, 2116ms total)
T055C 002:627 JLINK_WriteReg(R1, 0x00001000)  returns 0x00 (0005ms, 2122ms total)
T055C 002:633 JLINK_WriteReg(R2, 0x000000FF)  returns 0x00 (0004ms, 2127ms total)
T055C 002:638 JLINK_WriteReg(R3, 0x00000000)  returns 0x00 (0004ms, 2132ms total)
T055C 002:643 JLINK_WriteReg(R4, 0x00000000)  returns 0x00 (0004ms, 2137ms total)
T055C 002:648 JLINK_WriteReg(R5, 0x00000000)  returns 0x00 (0006ms, 2144ms total)
T055C 002:656 JLINK_WriteReg(R6, 0x00000000)  returns 0x00 (0005ms, 2151ms total)
T055C 002:663 JLINK_WriteReg(R7, 0x00000000)  returns 0x00 (0004ms, 2157ms total)
T055C 002:668 JLINK_WriteReg(R8, 0x00000000)  returns 0x00 (0004ms, 2162ms total)
T055C 002:673 JLINK_WriteReg(R9, 0x100001DC)  returns 0x00 (0004ms, 2167ms total)
T055C 002:679 JLINK_WriteReg(R10, 0x00000000)  returns 0x00 (0004ms, 2173ms total)
T055C 002:684 JLINK_WriteReg(R11, 0x00000000)  returns 0x00 (0005ms, 2179ms total)
T055C 002:690 JLINK_WriteReg(R12, 0x00000000)  returns 0x00 (0004ms, 2184ms total)
T055C 002:695 JLINK_WriteReg(R13 (SP), 0x10000800)  returns 0x00 (0007ms, 2192ms total)
T055C 002:703 JLINK_WriteReg(R14, 0x10000001)  returns 0x00 (0004ms, 2197ms total)
T055C 002:708 JLINK_WriteReg(R15 (PC), 0x10000110)  returns 0x00 (0004ms, 2202ms total)
T055C 002:713 JLINK_WriteReg(XPSR, 0x01000000)  returns 0x00 (0004ms, 2207ms total)
T055C 002:718 JLINK_WriteReg(MSP, 0x10000800)  returns 0x00 (0006ms, 2214ms total)
T055C 002:725 JLINK_WriteReg(PSP, 0x10000800)  returns 0x00 (0004ms, 2219ms total)
T055C 002:730 JLINK_WriteReg(CFBP, 0x00000000)  returns 0x00 (0004ms, 2224ms total)
T055C 002:735 JLINK_SetBPEx(Addr = 0x10000000, Type = 0xFFFFFFF2)  returns 0x00000009 (0004ms, 2229ms total)
T055C 002:740 JLINK_Go() (0006ms, 2236ms total)
T055C 002:747 JLINK_IsHalted()  returns FALSE (0006ms, 2243ms total)
T055C 002:781 JLINK_IsHalted()  returns FALSE (0006ms, 2243ms total)
T055C 002:789 JLINK_IsHalted()  returns FALSE (0006ms, 2243ms total)
T055C 002:797 JLINK_IsHalted()  returns FALSE (0005ms, 2242ms total)
T055C 002:804 JLINK_IsHalted()  returns FALSE (0005ms, 2242ms total)
T055C 002:817 JLINK_IsHalted()  returns FALSE (0005ms, 2242ms total)
T055C 002:827 JLINK_IsHalted()  returns FALSE (0005ms, 2242ms total)
T055C 002:834 JLINK_IsHalted()  returns FALSE (0005ms, 2242ms total)
T055C 002:847 JLINK_IsHalted() -- CPU_ReadMem(2 bytes @ 0x10000000)  returns TRUE (0011ms, 2248ms total)
T055C 002:859 JLINK_ReadReg(R15 (PC))  returns 0x10000000 (0004ms, 2241ms total)
T055C 002:864 JLINK_ClrBPEx(BPHandle = 0x00000009)  returns 0x00 (0004ms, 2246ms total)
T055C 002:869 JLINK_ReadReg(R0)  returns 0x00000000 (0004ms, 2251ms total)
T055C 002:875 JLINK_WriteReg(R0, 0x00004000)  returns 0x00 (0004ms, 2256ms total)
T055C 002:880 JLINK_WriteReg(R1, 0x00001000)  returns 0x00 (0004ms, 2261ms total)
T055C 002:885 JLINK_WriteReg(R2, 0x000000FF)  returns 0x00 (0004ms, 2266ms total)
T055C 002:890 JLINK_WriteReg(R3, 0x00000000)  returns 0x00 (0004ms, 2271ms total)
T055C 002:895 JLINK_WriteReg(R4, 0x00000000)  returns 0x00 (0004ms, 2276ms total)
T055C 002:900 JLINK_WriteReg(R5, 0x00000000)  returns 0x00 (0005ms, 2282ms total)
T055C 002:906 JLINK_WriteReg(R6, 0x00000000)  returns 0x00 (0004ms, 2287ms total)
T055C 002:911 JLINK_WriteReg(R7, 0x00000000)  returns 0x00 (0003ms, 2291ms total)
T055C 002:916 JLINK_WriteReg(R8, 0x00000000)  returns 0x00 (0004ms, 2297ms total)
T055C 002:921 JLINK_WriteReg(R9, 0x100001DC)  returns 0x00 (0004ms, 2302ms total)
T055C 002:926 JLINK_WriteReg(R10, 0x00000000)  returns 0x00 (0004ms, 2307ms total)
T055C 002:931 JLINK_WriteReg(R11, 0x00000000)  returns 0x00 (0004ms, 2312ms total)
T055C 002:936 JLINK_WriteReg(R12, 0x00000000)  returns 0x00 (0004ms, 2317ms total)
T055C 002:941 JLINK_WriteReg(R13 (SP), 0x10000800)  returns 0x00 (0005ms, 2323ms total)
T055C 002:947 JLINK_WriteReg(R14, 0x10000001)  returns 0x00 (0004ms, 2328ms total)
T055C 002:952 JLINK_WriteReg(R15 (PC), 0x10000020)  returns 0x00 (0004ms, 2333ms total)
T055C 002:957 JLINK_WriteReg(XPSR, 0x01000000)  returns 0x00 (0005ms, 2339ms total)
T055C 002:964 JLINK_WriteReg(MSP, 0x10000800)  returns 0x00 (0003ms, 2343ms total)
T055C 002:969 JLINK_WriteReg(PSP, 0x10000800)  returns 0x00 (0004ms, 2349ms total)
T055C 002:974 JLINK_WriteReg(CFBP, 0x00000000)  returns 0x00 (0004ms, 2354ms total)
T055C 002:979 JLINK_SetBPEx(Addr = 0x10000000, Type = 0xFFFFFFF2)  returns 0x0000000A (0004ms, 2359ms total)
T055C 002:985 JLINK_Go() (0005ms, 2365ms total)
T055C 002:991 JLINK_IsHalted() -- CPU_ReadMem(2 bytes @ 0x10000000)  returns TRUE (0012ms, 2378ms total)
T055C 003:004 JLINK_ReadReg(R15 (PC))  returns 0x10000000 (0003ms, 2369ms total)
T055C 003:008 JLINK_ClrBPEx(BPHandle = 0x0000000A)  returns 0x00 (0004ms, 2374ms total)
T055C 003:013 JLINK_ReadReg(R0)  returns 0x00000001 (0004ms, 2379ms total)
T055C 003:019 JLINK_WriteReg(R0, 0x00004000)  returns 0x00 (0004ms, 2384ms total)
T055C 003:024 JLINK_WriteReg(R1, 0x00001000)  returns 0x00 (0004ms, 2389ms total)
T055C 003:029 JLINK_WriteReg(R2, 0x000000FF)  returns 0x00 (0005ms, 2395ms total)
T055C 003:035 JLINK_WriteReg(R3, 0x00000000)  returns 0x00 (0004ms, 2400ms total)
T055C 003:040 JLINK_WriteReg(R4, 0x00000000)  returns 0x00 (0004ms, 2405ms total)
T055C 003:045 JLINK_WriteReg(R5, 0x00000000)  returns 0x00 (0004ms, 2410ms total)
T055C 003:050 JLINK_WriteReg(R6, 0x00000000)  returns 0x00 (0004ms, 2415ms total)
T055C 003:055 JLINK_WriteReg(R7, 0x00000000)  returns 0x00 (0004ms, 2420ms total)
T055C 003:060 JLINK_WriteReg(R8, 0x00000000)  returns 0x00 (0004ms, 2425ms total)
T055C 003:065 JLINK_WriteReg(R9, 0x100001DC)  returns 0x00 (0004ms, 2430ms total)
T055C 003:070 JLINK_WriteReg(R10, 0x00000000)  returns 0x00 (0005ms, 2436ms total)
T055C 003:076 JLINK_WriteReg(R11, 0x00000000)  returns 0x00 (0004ms, 2441ms total)
T055C 003:081 JLINK_WriteReg(R12, 0x00000000)  returns 0x00 (0004ms, 2446ms total)
T055C 003:086 JLINK_WriteReg(R13 (SP), 0x10000800)  returns 0x00 (0004ms, 2451ms total)
T055C 003:091 JLINK_WriteReg(R14, 0x10000001)  returns 0x00 (0004ms, 2456ms total)
T055C 003:096 JLINK_WriteReg(R15 (PC), 0x10000110)  returns 0x00 (0004ms, 2461ms total)
T055C 003:101 JLINK_WriteReg(XPSR, 0x01000000)  returns 0x00 (0004ms, 2466ms total)
T055C 003:106 JLINK_WriteReg(MSP, 0x10000800)  returns 0x00 (0004ms, 2471ms total)
T055C 003:111 JLINK_WriteReg(PSP, 0x10000800)  returns 0x00 (0004ms, 2476ms total)
T055C 003:116 JLINK_WriteReg(CFBP, 0x00000000)  returns 0x00 (0004ms, 2481ms total)
T055C 003:121 JLINK_SetBPEx(Addr = 0x10000000, Type = 0xFFFFFFF2)  returns 0x0000000B (0004ms, 2486ms total)
T055C 003:127 JLINK_Go() (0006ms, 2494ms total)
T055C 003:134 JLINK_IsHalted()  returns FALSE (0005ms, 2500ms total)
T055C 003:164 JLINK_IsHalted()  returns FALSE (0005ms, 2500ms total)
T055C 003:178 JLINK_IsHalted()  returns FALSE (0005ms, 2500ms total)
T055C 003:186 JLINK_IsHalted()  returns FALSE (0005ms, 2500ms total)
T055C 003:193 JLINK_IsHalted()  returns FALSE (0005ms, 2500ms total)
T055C 003:200 JLINK_IsHalted()  returns FALSE (0005ms, 2500ms total)
T055C 003:207 JLINK_IsHalted()  returns FALSE (0005ms, 2500ms total)
T055C 003:214 JLINK_IsHalted()  returns FALSE (0005ms, 2500ms total)
T055C 003:221 JLINK_IsHalted()  returns FALSE (0005ms, 2500ms total)
T055C 003:228 JLINK_IsHalted()  returns FALSE (0005ms, 2500ms total)
T055C 003:235 JLINK_IsHalted() -- CPU_ReadMem(2 bytes @ 0x10000000)  returns TRUE (0011ms, 2506ms total)
T055C 003:247 JLINK_ReadReg(R15 (PC))  returns 0x10000000 (0004ms, 2499ms total)
T055C 003:252 JLINK_ClrBPEx(BPHandle = 0x0000000B)  returns 0x00 (0004ms, 2504ms total)
T055C 003:257 JLINK_ReadReg(R0)  returns 0x00000000 (0004ms, 2509ms total)
T055C 003:262 JLINK_WriteReg(R0, 0x00000001)  returns 0x00 (0004ms, 2514ms total)
T055C 003:267 JLINK_WriteReg(R1, 0x00001000)  returns 0x00 (0004ms, 2519ms total)
T055C 003:272 JLINK_WriteReg(R2, 0x000000FF)  returns 0x00 (0004ms, 2524ms total)
T055C 003:277 JLINK_WriteReg(R3, 0x00000000)  returns 0x00 (0004ms, 2529ms total)
T055C 003:282 JLINK_WriteReg(R4, 0x00000000)  returns 0x00 (0004ms, 2534ms total)
T055C 003:287 JLINK_WriteReg(R5, 0x00000000)  returns 0x00 (0004ms, 2539ms total)
T055C 003:292 JLINK_WriteReg(R6, 0x00000000)  returns 0x00 (0004ms, 2544ms total)
T055C 003:297 JLINK_WriteReg(R7, 0x00000000)  returns 0x00 (0004ms, 2549ms total)
T055C 003:302 JLINK_WriteReg(R8, 0x00000000)  returns 0x00 (0005ms, 2555ms total)
T055C 003:308 JLINK_WriteReg(R9, 0x100001DC)  returns 0x00 (0011ms, 2567ms total)
T055C 003:323 JLINK_WriteReg(R10, 0x00000000)  returns 0x00 (0010ms, 2581ms total)
T055C 003:335 JLINK_WriteReg(R11, 0x00000000)  returns 0x00 (0006ms, 2589ms total)
T055C 003:343 JLINK_WriteReg(R12, 0x00000000)  returns 0x00 (0005ms, 2596ms total)
T055C 003:349 JLINK_WriteReg(R13 (SP), 0x10000800)  returns 0x00 (0004ms, 2601ms total)
T055C 003:354 JLINK_WriteReg(R14, 0x10000001)  returns 0x00 (0004ms, 2606ms total)
T055C 003:359 JLINK_WriteReg(R15 (PC), 0x100000CC)  returns 0x00 (0004ms, 2611ms total)
T055C 003:364 JLINK_WriteReg(XPSR, 0x01000000)  returns 0x00 (0004ms, 2616ms total)
T055C 003:369 JLINK_WriteReg(MSP, 0x10000800)  returns 0x00 (0004ms, 2621ms total)
T055C 003:374 JLINK_WriteReg(PSP, 0x10000800)  returns 0x00 (0004ms, 2626ms total)
T055C 003:379 JLINK_WriteReg(CFBP, 0x00000000)  returns 0x00 (0006ms, 2633ms total)
T055C 003:386 JLINK_SetBPEx(Addr = 0x10000000, Type = 0xFFFFFFF2)  returns 0x0000000C (0006ms, 2640ms total)
T055C 003:395 JLINK_Go() (0008ms, 2651ms total)
T055C 003:406 JLINK_IsHalted() -- CPU_ReadMem(2 bytes @ 0x10000000)  returns TRUE (0014ms, 2668ms total)
T055C 003:422 JLINK_ReadReg(R15 (PC))  returns 0x10000000 (0007ms, 2661ms total)
T055C 003:430 JLINK_ClrBPEx(BPHandle = 0x0000000C)  returns 0x00 (0004ms, 2666ms total)
T055C 003:435 JLINK_ReadReg(R0)  returns 0x00000000 (0004ms, 2671ms total)
T055C 003:497 JLINK_WriteMem(0x10000000, 0x01E4 Bytes, ...) -- Data:  00 BE 0A E0 0D 78 2D 06 68 40 08 24 40 00 00 D3 ... -- CPU_WriteMem(484 bytes @ 0x10000000)  returns 0x1E4 (0014ms, 2686ms total)
T055C 003:512 JLINK_WriteReg(R0, 0x00000000)  returns 0x00 (0010ms, 2697ms total)
T055C 003:523 JLINK_WriteReg(R1, 0x00B71B00)  returns 0x00 (0004ms, 2702ms total)
T055C 003:528 JLINK_WriteReg(R2, 0x00000002)  returns 0x00 (0004ms, 2707ms total)
T055C 003:533 JLINK_WriteReg(R3, 0x00000000)  returns 0x00 (0004ms, 2712ms total)
T055C 003:539 JLINK_WriteReg(R4, 0x00000000)  returns 0x00 (0004ms, 2718ms total)
T055C 003:544 JLINK_WriteReg(R5, 0x00000000)  returns 0x00 (0004ms, 2723ms total)
T055C 003:549 JLINK_WriteReg(R6, 0x00000000)  returns 0x00 (0005ms, 2729ms total)
T055C 003:555 JLINK_WriteReg(R7, 0x00000000)  returns 0x00 (0004ms, 2734ms total)
T055C 003:560 JLINK_WriteReg(R8, 0x00000000)  returns 0x00 (0004ms, 2739ms total)
T055C 003:565 JLINK_WriteReg(R9, 0x100001DC)  returns 0x00 (0005ms, 2745ms total)
T055C 003:571 JLINK_WriteReg(R10, 0x00000000)  returns 0x00 (0004ms, 2750ms total)
T055C 003:576 JLINK_WriteReg(R11, 0x00000000)  returns 0x00 (0004ms, 2755ms total)
T055C 003:581 JLINK_WriteReg(R12, 0x00000000)  returns 0x00 (0004ms, 2760ms total)
T055C 003:586 JLINK_WriteReg(R13 (SP), 0x10000800)  returns 0x00 (0004ms, 2765ms total)
T055C 003:591 JLINK_WriteReg(R14, 0x10000001)  returns 0x00 (0004ms, 2770ms total)
T055C 003:597 JLINK_WriteReg(R15 (PC), 0x10000044)  returns 0x00 (0005ms, 2776ms total)
T055C 003:603 JLINK_WriteReg(XPSR, 0x01000000)  returns 0x00 (0005ms, 2782ms total)
T055C 003:609 JLINK_WriteReg(MSP, 0x10000800)  returns 0x00 (0004ms, 2787ms total)
T055C 003:614 JLINK_WriteReg(PSP, 0x10000800)  returns 0x00 (0004ms, 2792ms total)
T055C 003:619 JLINK_WriteReg(CFBP, 0x00000000)  returns 0x00 (0004ms, 2797ms total)
T055C 003:624 JLINK_SetBPEx(Addr = 0x10000000, Type = 0xFFFFFFF2) -- CPU_ReadMem(2 bytes @ 0x10000000)  returns 0x0000000D (0006ms, 2804ms total)
T055C 003:631 JLINK_Go() -- CPU_WriteMem(2 bytes @ 0x10000000) (0007ms, 2812ms total)
T055C 003:639 JLINK_IsHalted() -- CPU_ReadMem(2 bytes @ 0x10000000)  returns TRUE (0012ms, 2825ms total)
T055C 003:652 JLINK_ReadReg(R15 (PC))  returns 0x10000000 (0004ms, 2817ms total)
T055C 003:657 JLINK_ClrBPEx(BPHandle = 0x0000000D)  returns 0x00 (0004ms, 2822ms total)
T055C 003:662 JLINK_ReadReg(R0)  returns 0x00000000 (0004ms, 2827ms total)
T055C 003:667 JLINK_WriteMem(0x10000204, 0x0400 Bytes, ...) -- Data:  60 03 00 10 79 01 00 00 81 01 00 00 83 01 00 00 ... -- CPU_WriteMem(1024 bytes @ 0x10000204)  returns 0x400 (0022ms, 2850ms total)
T055C 003:690 JLINK_WriteReg(R0, 0x00000000)  returns 0x00 (0004ms, 2855ms total)
T055C 003:695 JLINK_WriteReg(R1, 0x00000400)  returns 0x00 (0004ms, 2860ms total)
T055C 003:700 JLINK_WriteReg(R2, 0x10000204)  returns 0x00 (0005ms, 2866ms total)
T055C 003:706 JLINK_WriteReg(R3, 0x00000000)  returns 0x00 (0005ms, 2872ms total)
T055C 003:712 JLINK_WriteReg(R4, 0x00000000)  returns 0x00 (0005ms, 2878ms total)
T055C 003:718 JLINK_WriteReg(R5, 0x00000000)  returns 0x00 (0004ms, 2883ms total)
T055C 003:723 JLINK_WriteReg(R6, 0x00000000)  returns 0x00 (0004ms, 2888ms total)
T055C 003:728 JLINK_WriteReg(R7, 0x00000000)  returns 0x00 (0004ms, 2893ms total)
T055C 003:733 JLINK_WriteReg(R8, 0x00000000)  returns 0x00 (0004ms, 2898ms total)
T055C 003:738 JLINK_WriteReg(R9, 0x100001DC)  returns 0x00 (0004ms, 2903ms total)
T055C 003:743 JLINK_WriteReg(R10, 0x00000000)  returns 0x00 (0004ms, 2908ms total)
T055C 003:748 JLINK_WriteReg(R11, 0x00000000)  returns 0x00 (0004ms, 2913ms total)
T055C 003:753 JLINK_WriteReg(R12, 0x00000000)  returns 0x00 (0004ms, 2918ms total)
T055C 003:758 JLINK_WriteReg(R13 (SP), 0x10000800)  returns 0x00 (0005ms, 2924ms total)
T055C 003:764 JLINK_WriteReg(R14, 0x10000001)  returns 0x00 (0004ms, 2929ms total)
T055C 003:769 JLINK_WriteReg(R15 (PC), 0x10000156)  returns 0x00 (0005ms, 2935ms total)
T055C 003:775 JLINK_WriteReg(XPSR, 0x01000000)  returns 0x00 (0003ms, 2939ms total)
T055C 003:779 JLINK_WriteReg(MSP, 0x10000800)  returns 0x00 (0005ms, 2945ms total)
T055C 003:786 JLINK_WriteReg(PSP, 0x10000800)  returns 0x00 (0004ms, 2951ms total)
T055C 003:791 JLINK_WriteReg(CFBP, 0x00000000)  returns 0x00 (0004ms, 2956ms total)
T055C 003:796 JLINK_SetBPEx(Addr = 0x10000000, Type = 0xFFFFFFF2)  returns 0x0000000E (0004ms, 2961ms total)
T055C 003:801 JLINK_Go() (0006ms, 2968ms total)
T055C 003:808 JLINK_IsHalted()  returns FALSE (0006ms, 2975ms total)
T055C 003:845 JLINK_IsHalted() -- CPU_ReadMem(2 bytes @ 0x10000000)  returns TRUE (0011ms, 2980ms total)
T055C 003:857 JLINK_ReadReg(R15 (PC))  returns 0x10000000 (0005ms, 2974ms total)
T055C 003:862 JLINK_ClrBPEx(BPHandle = 0x0000000E)  returns 0x00 (0004ms, 2978ms total)
T055C 003:867 JLINK_ReadReg(R0)  returns 0x00000000 (0005ms, 2984ms total)
T055C 003:873 JLINK_WriteMem(0x10000204, 0x0400 Bytes, ...) -- Data:  59 49 08 60 16 E0 57 48 00 68 C0 B2 00 F1 01 00 ... -- CPU_WriteMem(1024 bytes @ 0x10000204)  returns 0x400 (0023ms, 3008ms total)
T055C 003:897 JLINK_WriteReg(R0, 0x00000400)  returns 0x00 (0006ms, 3015ms total)
T055C 003:905 JLINK_WriteReg(R1, 0x00000400)  returns 0x00 (0005ms, 3022ms total)
T055C 003:912 JLINK_WriteReg(R2, 0x10000204)  returns 0x00 (0003ms, 3027ms total)
T055C 003:916 JLINK_WriteReg(R3, 0x00000000)  returns 0x00 (0004ms, 3032ms total)
T055C 003:921 JLINK_WriteReg(R4, 0x00000000)  returns 0x00 (0005ms, 3038ms total)
T055C 003:927 JLINK_WriteReg(R5, 0x00000000)  returns 0x00 (0005ms, 3044ms total)
T055C 003:933 JLINK_WriteReg(R6, 0x00000000)  returns 0x00 (0004ms, 3049ms total)
T055C 003:938 JLINK_WriteReg(R7, 0x00000000)  returns 0x00 (0004ms, 3054ms total)
T055C 003:943 JLINK_WriteReg(R8, 0x00000000)  returns 0x00 (0004ms, 3059ms total)
T055C 003:949 JLINK_WriteReg(R9, 0x100001DC)  returns 0x00 (0004ms, 3065ms total)
T055C 003:954 JLINK_WriteReg(R10, 0x00000000)  returns 0x00 (0004ms, 3070ms total)
T055C 003:959 JLINK_WriteReg(R11, 0x00000000)  returns 0x00 (0005ms, 3076ms total)
T055C 003:965 JLINK_WriteReg(R12, 0x00000000)  returns 0x00 (0004ms, 3081ms total)
T055C 003:970 JLINK_WriteReg(R13 (SP), 0x10000800)  returns 0x00 (0004ms, 3086ms total)
T055C 003:975 JLINK_WriteReg(R14, 0x10000001)  returns 0x00 (0004ms, 3091ms total)
T055C 003:980 JLINK_WriteReg(R15 (PC), 0x10000156)  returns 0x00 (0004ms, 3096ms total)
T055C 003:985 JLINK_WriteReg(XPSR, 0x01000000)  returns 0x00 (0004ms, 3101ms total)
T055C 003:990 JLINK_WriteReg(MSP, 0x10000800)  returns 0x00 (0004ms, 3106ms total)
T055C 003:995 JLINK_WriteReg(PSP, 0x10000800)  returns 0x00 (0004ms, 3111ms total)
T055C 004:000 JLINK_WriteReg(CFBP, 0x00000000)  returns 0x00 (0004ms, 3116ms total)
T055C 004:005 JLINK_SetBPEx(Addr = 0x10000000, Type = 0xFFFFFFF2)  returns 0x0000000F (0004ms, 3121ms total)
T055C 004:010 JLINK_Go() (0005ms, 3127ms total)
T055C 004:016 JLINK_IsHalted()  returns FALSE (0006ms, 3134ms total)
T055C 004:047 JLINK_IsHalted() -- CPU_ReadMem(2 bytes @ 0x10000000)  returns TRUE (0013ms, 3141ms total)
T055C 004:061 JLINK_ReadReg(R15 (PC))  returns 0x10000000 (0004ms, 3132ms total)
T055C 004:066 JLINK_ClrBPEx(BPHandle = 0x0000000F)  returns 0x00 (0004ms, 3137ms total)
T055C 004:071 JLINK_ReadReg(R0)  returns 0x00000000 (0004ms, 3142ms total)
T055C 004:077 JLINK_WriteMem(0x10000204, 0x0400 Bytes, ...) -- Data:  02 28 03 D1 12 B9 BA 4B 19 60 0E E0 20 B9 01 2A ... -- CPU_WriteMem(1024 bytes @ 0x10000204)  returns 0x400 (0021ms, 3164ms total)
T055C 004:099 JLINK_WriteReg(R0, 0x00000800)  returns 0x00 (0005ms, 3170ms total)
T055C 004:105 JLINK_WriteReg(R1, 0x00000400)  returns 0x00 (0005ms, 3176ms total)
T055C 004:111 JLINK_WriteReg(R2, 0x10000204)  returns 0x00 (0004ms, 3181ms total)
T055C 004:116 JLINK_WriteReg(R3, 0x00000000)  returns 0x00 (0004ms, 3186ms total)
T055C 004:121 JLINK_WriteReg(R4, 0x00000000)  returns 0x00 (0004ms, 3191ms total)
T055C 004:126 JLINK_WriteReg(R5, 0x00000000)  returns 0x00 (0004ms, 3196ms total)
T055C 004:131 JLINK_WriteReg(R6, 0x00000000)  returns 0x00 (0004ms, 3201ms total)
T055C 004:136 JLINK_WriteReg(R7, 0x00000000)  returns 0x00 (0004ms, 3206ms total)
T055C 004:141 JLINK_WriteReg(R8, 0x00000000)  returns 0x00 (0004ms, 3211ms total)
T055C 004:146 JLINK_WriteReg(R9, 0x100001DC)  returns 0x00 (0004ms, 3216ms total)
T055C 004:151 JLINK_WriteReg(R10, 0x00000000)  returns 0x00 (0004ms, 3221ms total)
T055C 004:156 JLINK_WriteReg(R11, 0x00000000)  returns 0x00 (0005ms, 3227ms total)
T055C 004:162 JLINK_WriteReg(R12, 0x00000000)  returns 0x00 (0005ms, 3233ms total)
T055C 004:168 JLINK_WriteReg(R13 (SP), 0x10000800)  returns 0x00 (0004ms, 3238ms total)
T055C 004:174 JLINK_WriteReg(R14, 0x10000001)  returns 0x00 (0004ms, 3244ms total)
T055C 004:179 JLINK_WriteReg(R15 (PC), 0x10000156)  returns 0x00 (0004ms, 3249ms total)
T055C 004:184 JLINK_WriteReg(XPSR, 0x01000000)  returns 0x00 (0004ms, 3254ms total)
T055C 004:189 JLINK_WriteReg(MSP, 0x10000800)  returns 0x00 (0004ms, 3259ms total)
T055C 004:194 JLINK_WriteReg(PSP, 0x10000800)  returns 0x00 (0004ms, 3264ms total)
T055C 004:200 JLINK_WriteReg(CFBP, 0x00000000)  returns 0x00 (0005ms, 3270ms total)
T055C 004:206 JLINK_SetBPEx(Addr = 0x10000000, Type = 0xFFFFFFF2)  returns 0x00000010 (0004ms, 3275ms total)
T055C 004:212 JLINK_Go() (0005ms, 3282ms total)
T055C 004:218 JLINK_IsHalted()  returns FALSE (0007ms, 3290ms total)
T055C 004:253 JLINK_IsHalted() -- CPU_ReadMem(2 bytes @ 0x10000000)  returns TRUE (0012ms, 3295ms total)
T055C 004:266 JLINK_ReadReg(R15 (PC))  returns 0x10000000 (0005ms, 3288ms total)
T055C 004:272 JLINK_ClrBPEx(BPHandle = 0x00000010)  returns 0x00 (0004ms, 3293ms total)
T055C 004:277 JLINK_ReadReg(R0)  returns 0x00000000 (0006ms, 3300ms total)
T055C 004:285 JLINK_WriteMem(0x10000204, 0x0400 Bytes, ...) -- Data:  27 FC 28 68 01 21 A1 40 08 40 C6 B2 0E B1 01 20 ... -- CPU_WriteMem(1024 bytes @ 0x10000204)  returns 0x400 (0022ms, 3323ms total)
T055C 004:308 JLINK_WriteReg(R0, 0x00000C00)  returns 0x00 (0004ms, 3328ms total)
T055C 004:313 JLINK_WriteReg(R1, 0x00000400)  returns 0x00 (0004ms, 3333ms total)
T055C 004:318 JLINK_WriteReg(R2, 0x10000204)  returns 0x00 (0005ms, 3339ms total)
T055C 004:324 JLINK_WriteReg(R3, 0x00000000)  returns 0x00 (0004ms, 3344ms total)
T055C 004:329 JLINK_WriteReg(R4, 0x00000000)  returns 0x00 (0004ms, 3349ms total)
T055C 004:334 JLINK_WriteReg(R5, 0x00000000)  returns 0x00 (0004ms, 3354ms total)
T055C 004:339 JLINK_WriteReg(R6, 0x00000000)  returns 0x00 (0004ms, 3359ms total)
T055C 004:344 JLINK_WriteReg(R7, 0x00000000)  returns 0x00 (0004ms, 3364ms total)
T055C 004:350 JLINK_WriteReg(R8, 0x00000000)  returns 0x00 (0004ms, 3370ms total)
T055C 004:355 JLINK_WriteReg(R9, 0x100001DC)  returns 0x00 (0004ms, 3375ms total)
T055C 004:360 JLINK_WriteReg(R10, 0x00000000)  returns 0x00 (0004ms, 3380ms total)
T055C 004:366 JLINK_WriteReg(R11, 0x00000000)  returns 0x00 (0004ms, 3386ms total)
T055C 004:371 JLINK_WriteReg(R12, 0x00000000)  returns 0x00 (0004ms, 3391ms total)
T055C 004:376 JLINK_WriteReg(R13 (SP), 0x10000800)  returns 0x00 (0004ms, 3396ms total)
T055C 004:381 JLINK_WriteReg(R14, 0x10000001)  returns 0x00 (0004ms, 3401ms total)
T055C 004:386 JLINK_WriteReg(R15 (PC), 0x10000156)  returns 0x00 (0004ms, 3406ms total)
T055C 004:391 JLINK_WriteReg(XPSR, 0x01000000)  returns 0x00 (0004ms, 3411ms total)
T055C 004:396 JLINK_WriteReg(MSP, 0x10000800)  returns 0x00 (0004ms, 3416ms total)
T055C 004:401 JLINK_WriteReg(PSP, 0x10000800)  returns 0x00 (0005ms, 3422ms total)
T055C 004:407 JLINK_WriteReg(CFBP, 0x00000000)  returns 0x00 (0004ms, 3427ms total)
T055C 004:412 JLINK_SetBPEx(Addr = 0x10000000, Type = 0xFFFFFFF2)  returns 0x00000011 (0004ms, 3432ms total)
T055C 004:417 JLINK_Go() (0005ms, 3438ms total)
T055C 004:423 JLINK_IsHalted()  returns FALSE (0006ms, 3445ms total)
T055C 004:457 JLINK_IsHalted() -- CPU_ReadMem(2 bytes @ 0x10000000)  returns TRUE (0012ms, 3451ms total)
T055C 004:469 JLINK_ReadReg(R15 (PC))  returns 0x10000000 (0005ms, 3444ms total)
T055C 004:475 JLINK_ClrBPEx(BPHandle = 0x00000011)  returns 0x00 (0004ms, 3449ms total)
T055C 004:480 JLINK_ReadReg(R0)  returns 0x00000000 (0005ms, 3455ms total)
T055C 004:486 JLINK_WriteMem(0x10000204, 0x0400 Bytes, ...) -- Data:  07 21 91 40 88 43 60 61 68 78 38 B1 60 69 29 78 ... -- CPU_WriteMem(1024 bytes @ 0x10000204)  returns 0x400 (0022ms, 3478ms total)
T055C 004:509 JLINK_WriteReg(R0, 0x00001000)  returns 0x00 (0007ms, 3486ms total)
T055C 004:517 JLINK_WriteReg(R1, 0x00000400)  returns 0x00 (0003ms, 3490ms total)
T055C 004:521 JLINK_WriteReg(R2, 0x10000204)  returns 0x00 (0004ms, 3495ms total)
T055C 004:526 JLINK_WriteReg(R3, 0x00000000)  returns 0x00 (0005ms, 3501ms total)
T055C 004:532 JLINK_WriteReg(R4, 0x00000000)  returns 0x00 (0004ms, 3506ms total)
T055C 004:537 JLINK_WriteReg(R5, 0x00000000)  returns 0x00 (0004ms, 3511ms total)
